# HZ S RI R 50
500000000 -0.10563270933333332 -2.303446213 -0.11162424033333332 0.04850741066666667 0 0 0 0
500991080 -0.48599117933333336 -3.2271568769999996 -0.13344671766666666 0.07765281633333333 0 0 0 0
501982160 -1.047737876 -4.872837543 -0.17821364566666667 0.12301012833333333 0 0 0 0
502973240 -1.4169747029999997 -7.704684892666666 -0.260526796 0.17792538766666666 0 0 0 0
503964320 0.4517228993333333 -12.157858848333333 -0.42522688666666664 0.19047802633333333 0 0 0 0
504955400 5.1758810676666664 -11.879841167999999 -0.49003004966666663 0.0271869 0 0 0 0
505946480 5.283909797 -8.368665058666666 -0.3770561016666667 -0.023069909333333333 0 0 0 0
506937560 2.90676705 -6.187617460333333 -0.26854431566666664 0.023861667999999996 0 0 0 0
507928640 1.232320666 -4.701836267666666 -0.1938682143333333 0.06013155166666666 0 0 0 0
508919720 0.19288629766666668 -3.424463431 -0.134004344 0.07767020866666666 0 0 0 0
509910800 -0.29725045899999997 -2.49802343 -0.09318182066666665 0.08150176666666666 0 0 0 0
510901880 -0.7885388133333333 -3.2234585283333335 -0.10001835433333334 0.11231709233333333 0 0 0 0
511892960 -1.7515199176666667 -4.725350697333333 -0.11662422066666667 0.17048037 0 0 0 0
512884040 -3.3237916623333335 -7.332680224999999 -0.15044265933333334 0.266074349 0 0 0 0
513875120 -5.163262684666667 -13.196301777666665 -0.265508274 0.43485873900000005 0 0 0 0
514866200 2.561134815 -20.64800771033333 -0.6165430343333332 0.3794800239999999 0 0 0 0
515857280 6.886325040999999 -12.898352304666666 -0.5010272756666666 0.105493664 0 0 0 0
516848360 4.1479830736666665 -8.190709431666665 -0.31748675233333334 0.08573003333333332 0 0 0 0
517839440 1.725915789 -5.699287731666666 -0.20184670333333332 0.100309652 0 0 0 0
518830520 0.458099037 -4.04155302 -0.13141520266666665 0.10372635666666666 0 0 0 0
519821600 -0.19886280566666664 -2.916209618 -0.08565651066666666 0.10093864733333333 0 0 0 0
520812680 -0.6630729433333333 -3.6376169516666668 -0.08720943033333334 0.13149642899999997 0 0 0 0
521803760 -1.5275999303333334 -5.488155205666667 -0.10305567299999999 0.19898559100000002 0 0 0 0
522794840 -2.9957737916666667 -9.176604906333333 -0.1409675473333333 0.320229758 0 0 0 0
523785920 -3.142483393 -19.81217193566667 -0.347493549 0.5774052139999999 0 0 0 0
524777000 16.154539743666668 -25.588255564 -0.9164030346666667 0.3214074963333333 0 0 0 0
525768080 12.922078768 -12.021280606333331 -0.5737852053333334 0.064962496 0 0 0 0
526759160 7.218700885333332 -8.641941705999999 -0.36327561666666663 0.09927576699999999 0 0 0 0
527750240 3.1370669996666667 -6.893180687666666 -0.22365143833333334 0.140201414 0 0 0 0
528741320 0.9057951366666666 -5.045352617333333 -0.12795234666666666 0.14363955899999997 0 0 0 0
529732400 -0.12645384399999998 -3.572762409333333 -0.069414568 0.129549369 0 0 0 0
530723480 -0.6696863566666666 -4.3229029966666666 -0.05894718533333333 0.16088106666666668 0 0 0 0
531714560 -1.5118819866666666 -7.074538866333333 -0.07047545633333333 0.247635359 0 0 0 0
532705640 -3.223622003333333 -13.629282315 -0.10838447966666666 0.4560489053333333 0 0 0 0
533696720 7.180997768666666 -35.12431589733333 -0.6598681206666667 0.9158084586666666 0 0 0 0
534687800 32.23401832533333 -15.179555892666665 -1.0773133430000001 0.013166327999999998 0 0 0 0
535678880 18.833141326333333 -8.594196319 -0.6309201116666666 0.05468971 0 0 0 0
536669960 9.594237009333334 -10.017757097333334 -0.3765703433333334 0.21226918666666664 0 0 0 0
537661040 3.3471012906666666 -8.353034972666666 -0.17982952233333332 0.23589690966666665 0 0 0 0
538652120 0.3361152803333334 -5.869737465666667 -0.06262848233333332 0.19958914766666663 0 0 0 0
539643200 -0.659960031 -3.9150119616666665 -0.008120047 0.15100037 0 0 0 0
540634280 -1.4648969166666665 -4.186255295666666 0.020529366666666667 0.16313074466666666 0 0 0 0
541625360 -3.312645514333333 -5.9512612019999995 0.06866575966666666 0.21867838966666664 0 0 0 0
542616440 -7.619518756333333 -8.721887588 0.18191373299999997 0.31288795599999997 0 0 0 0
543607520 -17.953615824333333 -13.599909781666668 0.45697237999999996 0.479122827 0 0 0 0
544598600 -42.602422078000004 -37.121096292333334 1.068520784 1.2238556936666667 0 0 0 0
545589680 9.175862311666666 -45.960999806 -0.3998218373333333 1.2752243276666668 0 0 0 0
546580760 4.5150643976666665 -18.790064493333333 -0.179158086 0.5416798189999998 0 0 0 0
547571840 0.40752215133333336 -10.140390713333334 -0.030223140666666665 0.3150304053333333 0 0 0 0
548562920 -0.8294856346666666 -6.089890638666667 0.020900196666666666 0.20812262033333334 0 0 0 0
549554000 -1.2130470273333334 -3.926646788333333 0.04245486799999999 0.14782621433333332 0 0 0 0
550545080 -1.9153397076666665 -3.821839729333333 0.07019175533333333 0.14524267066666666 0 0 0 0
551536160 -3.968522230333333 -5.007906277666667 0.13658306966666667 0.17758583466666666 0 0 0 0
552527240 -8.017635981 -6.204165776 0.2712031696666667 0.19986902633333337 0 0 0 0
553518320 -16.462841033333333 -5.737758794666666 0.5394719833333332 0.14815353766666667 0 0 0 0
554509400 -33.165814717333326 -1.8485836776666666 1.0500300719999998 -0.06296998233333333 0 0 0 0
555500480 -59.101161956 -41.857818603 2.102212428333333 1.0144156213333333 0 0 0 0
556491560 -2.908847808333333 -26.005331038999998 0.285427093 0.8293807103333333 0 0 0 0
557482640 -1.523334304 -11.746491113666666 0.16874457833333334 0.39270806266666664 0 0 0 0
558473720 -1.7547303036666666 -6.5129232403333335 0.14726700333333334 0.21961648699999997 0 0 0 0
559464800 -1.6759126183333333 -3.983585992666666 0.12832867066666664 0.13392611299999999 0 0 0 0
560455880 -2.107202609 -3.490344444333333 0.14399949666666667 0.10365328633333333 0 0 0 0
561446960 -3.926614443 -4.108710765333333 0.21170726366666665 0.08052163266666665 0 0 0 0
562438040 -6.773987133333333 -4.262017249666666 0.3007345493333333 0.025493526999999995 0 0 0 0
563429120 -10.857410748333333 -3.876926978 0.40074606699999993 -0.08108843833333332 0 0 0 0
564420200 -15.880079587 -3.393218676 0.5209009246666666 -0.20745482466666668 0 0 0 0
565411280 -18.610968907333334 -9.113439559666666 0.6954229273333332 -0.14419342999999998 0 0 0 0
566402360 -9.656393050666667 -13.125812212333333 0.5596889249999999 0.11810282066666666 0 0 0 0
567393440 -4.187581220666666 -8.507905324 0.3254453336666666 0.11467099399999998 0 0 0 0
568384520 -2.553283770333333 -5.214454014333333 0.212298219 0.06263385666666667 0 0 0 0
569375600 -1.9433387513333333 -3.3566822999999997 0.15522269833333335 0.030128090333333333 0 0 0 0
570366680 -2.062019506666667 -2.7086393826666666 0.13876100800000002 0.005654049333333333 0 0 0 0
571357760 -3.3081128593333333 -2.8533974486666667 0.156467606 -0.030004701666666668 0 0 0 0
572348840 -4.817064761333333 -2.6580142176666666 0.16496966233333332 -0.073370881 0 0 0 0
573339920 -6.515052795 -2.044567425333333 0.16626461799999998 -0.122249953 0 0 0 0
574331000 -7.968558787666667 -1.7741953923333331 0.16711623933333333 -0.15888736633333334 0 0 0 0
575322080 -9.203877766333333 -2.205552577333333 0.18171720666666663 -0.18001850366666666 0 0 0 0
576313160 -8.287852287 -4.068293173666666 0.20840479866666664 -0.13599091233333332 0 0 0 0
577304240 -5.788238048 -4.552513598999999 0.18497598133333332 -0.07717127066666665 0 0 0 0
578295320 -3.8290375863333335 -3.8029738259999997 0.14340942066666668 -0.04385614833333333 0 0 0 0
579286400 -2.613378763 -2.7452861463333336 0.10651456766666667 -0.028666680666666666 0 0 0 0
580277480 -2.3811195686666666 -2.1978413256666665 0.08905848566666666 -0.03098385233333333 0 0 0 0
581268560 -3.4016367586666663 -1.9971702886666667 0.08633741899999998 -0.05013776633333333 0 0 0 0
582259640 -4.524867852 -1.5926729833333333 0.08149209066666666 -0.07213780466666667 0 0 0 0
583250720 -5.677884895999999 -0.9416432969999999 0.07458510966666666 -0.087981298 0 0 0 0
584241800 -6.699689228666667 -0.38770516666666666 0.07375382833333333 -0.10361166266666666 0 0 0 0
585232880 -7.557494004 -0.533998966 0.082166448 -0.10782730033333333 0 0 0 0
586223960 -7.855188051333333 -1.800241271 0.10525885433333333 -0.09453567066666668 0 0 0 0
587215040 -6.552881240333333 -3.1193411343333333 0.11645878800000001 -0.05874202366666666 0 0 0 0
588206120 -4.5440634090000005 -3.3245744703333333 0.10233123033333333 -0.026384261333333332 0 0 0 0
589197200 -3.158418496 -2.6545178886666663 0.08216121733333333 -0.011171072666666665 0 0 0 0
590188280 -2.6289377206666664 -2.0873358243333335 0.071924075 -0.008129566333333333 0 0 0 0
591179360 -3.6796680286666668 -1.7850661666666667 0.07794401233333334 -0.023788050999999994 0 0 0 0
592170440 -4.721558252333333 -1.1106092526666667 0.08150336066666666 -0.04283690666666666 0 0 0 0
593161520 -5.686179796333332 -0.2615113453333333 0.08070693366666666 -0.061257447666666666 0 0 0 0
594152600 -6.539037068 0.48533718766666667 0.083773049 -0.07663005299999999 0 0 0 0
595143680 -7.427410760999999 0.6395591886666666 0.09422902233333331 -0.09067829899999999 0 0 0 0
596134760 -8.068796157333333 -0.4011275563333333 0.11839332399999998 -0.08391085733333332 0 0 0 0
597125840 -7.159279505000001 -2.0965280526666668 0.13362929166666665 -0.051548981333333334 0 0 0 0
598116920 -5.187659104333333 -2.866788227666666 0.12116203166666667 -0.019557832999999997 0 0 0 0
599108000 -3.5795747433333327 -2.5164221919999994 0.10039103 -0.005401105666666667 0 0 0 0
600099080 -2.7137876346666663 -1.9539206023333335 0.08461816066666668 -0.0033940163333333333 0 0 0 0
601090160 -3.8221099369999996 -1.5177929 0.09226037266666666 -0.026072041666666664 0 0 0 0
602081240 -4.886181195 -0.7941561733333332 0.09302012566666665 -0.05163802666666667 0 0 0 0
603072320 -5.809918085333334 0.230041419 0.089261263 -0.07776660933333333 0 0 0 0
604063400 -6.721796035333332 1.1573959186666667 0.086506349 -0.10131029700000001 0 0 0 0
605054480 -8.050353526333334 1.4969358836666666 0.09634356133333334 -0.123973948 0 0 0 0
606045560 -9.456899960333335 0.43597608733333326 0.12941362899999997 -0.13097168466666664 0 0 0 0
607036640 -8.839748382 -2.51833415 0.15860342933333332 -0.08698041199999998 0 0 0 0
608027720 -5.972146192666665 -3.8534763646666663 0.14328831866666666 -0.03275543166666667 0 0 0 0
609018800 -3.8229770656666666 -3.269755045 0.11056969 -0.011852817999999998 0 0 0 0
610009880 -2.703713337 -2.412752945333333 0.086553948 -0.005497293666666667 0 0 0 0
611000960 -4.019215901333332 -2.3020068006666663 0.09573834366666667 -0.025308398666666666 0 0 0 0
611992040 -5.597552457666667 -1.7560019883333333 0.10206228933333333 -0.050750458666666665 0 0 0 0
612983120 -7.403682231666666 -0.7954319906666667 0.10693804633333333 -0.08245296966666667 0 0 0 0
613974200 -9.645788828 0.17398481766666665 0.11743956266666666 -0.11600410866666666 0 0 0 0
614965280 -12.660355567333333 -0.11864546966666664 0.155447587 -0.14618272533333335 0 0 0 0
615956360 -13.952609697333333 -4.937921047 0.22872053999999997 -0.10684018766666667 0 0 0 0
616947440 -8.355312665 -8.338884670999999 0.20954688333333332 -0.0020645329999999995 0 0 0 0
617938520 -4.186590671333333 -6.266092776666666 0.14028388733333333 0.027507572666666664 0 0 0 0
618929600 -2.671007474 -4.226410706666666 0.10278275066666666 0.022217881666666665 0 0 0 0
619920680 -2.0105253056666665 -2.9018552296666664 0.08150682266666667 0.014923185666666667 0 0 0 0
620911760 -2.836759328333333 -3.209828376333333 0.09483595633333333 0.006158640999999999 0 0 0 0
621902840 -4.049515405666666 -3.6158296263333334 0.11253307933333334 -0.004925155333333333 0 0 0 0
622893920 -5.510558605 -4.245892523999999 0.13603030566666663 -0.016588712666666665 0 0 0 0
623885000 -6.824803828666667 -5.299360592666666 0.16382728966666665 -0.020062241333333335 0 0 0 0
624876080 -7.015183289333333 -7.036959965666666 0.1874921913333333 -0.0044061 0 0 0 0
625867160 -5.033959705999999 -7.595148721999999 0.174924835 0.027147176 0 0 0 0
626858240 -3.1931277903333335 -6.516156355333333 0.1409957403333333 0.039278359 0 0 0 0
627849320 -2.2135273609999997 -4.910209019666667 0.111812889 0.032787038 0 0 0 0
628840400 -1.8062513266666667 -3.6095050963333333 0.09328550066666666 0.022767623 0 0 0 0
629831480 -1.5593644773333333 -2.620184023666667 0.08010259733333333 0.013513207 0 0 0 0
630822560 -2.033664703 -2.7624428266666663 0.087197266 0.006075136999999999 0 0 0 0
631813640 -2.7784705156666663 -3.127135435333333 0.10010615433333332 -0.0006861816666666666 0 0 0 0
632804720 -3.680665254333333 -3.5774371616666665 0.11694691766666665 -0.008446331666666668 0 0 0 0
633795800 -4.407638867333333 -4.087028661999999 0.13105662599999998 -0.01308214633333333 0 0 0 0
634786880 -4.705684661333333 -4.706350008333333 0.14660314666666666 -0.009180259666666666 0 0 0 0
635777960 -4.383066971333333 -5.1077181493333335 0.152413472 0.0005841106666666666 0 0 0 0
636769040 -3.710891087666667 -4.909914175333334 0.14394030933333332 0.0067952073333333324 0 0 0 0
637760120 -3.038007497333333 -4.139136154666667 0.130442102 0.006630558999999999 0 0 0 0
638751200 -2.5693047836666665 -3.2901434096666664 0.11564358766666666 0.0021909026666666665 0 0 0 0
639742280 -2.2183508869999997 -2.5352282516666667 0.10313054133333334 -0.004946275 0 0 0 0
640733360 -2.820583978666667 -2.4849427539999995 0.11043033933333332 -0.018991640666666663 0 0 0 0
641724440 -3.981798807333333 -2.5585130053333334 0.12457560466666665 -0.04145016233333333 0 0 0 0
642715520 -5.392331282000001 -2.5117882883333333 0.13906745566666667 -0.06858458833333332 0 0 0 0
643706600 -7.0391600919999995 -2.436497211 0.15674266666666664 -0.10090068666666666 0 0 0 0
644697680 -8.541876156666666 -2.728854735333333 0.17956125699999997 -0.12701221733333332 0 0 0 0
645688760 -9.217476844333333 -3.7328658893333335 0.21067996299999997 -0.13282618333333332 0 0 0 0
646679840 -8.234917957999999 -4.753256478999999 0.221489985 -0.10465605266666667 0 0 0 0
647670920 -6.2185603773333336 -4.738622664999999 0.20315690799999997 -0.07252435866666665 0 0 0 0
648662000 -4.566316444999999 -3.871580997333333 0.16976658933333333 -0.054612546666666664 0 0 0 0
649653080 -3.550941149 -2.873888571666667 0.14111225266666666 -0.05123934733333333 0 0 0 0
650644160 -4.187358060999999 -2.6014877949999997 0.13965892266666668 -0.07455693633333332 0 0 0 0
651635240 -6.053534507 -2.2364595726666665 0.1452844683333333 -0.12437891666666667 0 0 0 0
652626320 -8.377075512666666 -1.2210367913333333 0.139466444 -0.188154076 0 0 0 0
653617400 -11.425153731666668 0.39195582199999995 0.121948634 -0.2733641063333333 0 0 0 0
654608480 -15.23536841 2.1166208579999997 0.112557992 -0.37729195666666665 0 0 0 0
655599560 -20.410275776666666 0.5059790903333333 0.1842365013333333 -0.49095129933333326 0 0 0 0
656590640 -20.215616225666665 -7.153189340666666 0.3600153023333333 -0.43580025399999994 0 0 0 0
657581720 -12.117344537666668 -9.134643235999999 0.34276209199999996 -0.24237234333333335 0 0 0 0
658572800 -7.282431283999999 -6.638475099666666 0.2479615603333333 -0.15364293699999998 0 0 0 0
659563880 -5.049997964999999 -4.388264973333333 0.17952714799999997 -0.123143819 0 0 0 0
660554960 -5.882059255666666 -3.665230750333333 0.15873879666666665 -0.15526117366666664 0 0 0 0
661546040 -9.623341241999999 -2.8170495026666664 0.1426627133333333 -0.25878626066666666 0 0 0 0
662537120 -14.858433405333333 1.6989776686666667 0.035803641666666663 -0.4069176113333333 0 0 0 0
663528200 -16.80216026233333 13.126342772666668 -0.2556943393333333 -0.4843338823333333 0 0 0 0
664519280 -8.214687188 25.208931604666663 -0.5887588853333333 -0.2942517296666666 0 0 0 0
665510360 7.090474286999999 29.946806589333335 -0.7472946636666666 0.09561863500000001 0 0 0 0
666501440 30.666632969666665 28.676286061000003 -0.7738505996666666 0.7160306566666668 0 0 0 0
667492520 53.88726297966667 -21.614052453999996 0.520369301 1.4194509183333335 0 0 0 0
668483600 1.3333739433333331 -28.196310043 0.7766712896666667 0.026723354333333327 0 0 0 0
669474680 -5.333144028333333 -12.903487840666665 0.37630753666666666 -0.18103388399999998 0 0 0 0
670465760 -7.983871459666666 -11.748634337666667 0.3328527703333333 -0.26941165266666667 0 0 0 0
671456840 -33.376089731 -34.37912305133333 0.852445284 -1.0163909393333332 0 0 0 0
672447920 30.551861444666663 37.92941411266666 -0.8564544313333333 0.8896020646666667 0 0 0 0
673439000 15.019403457 11.527629851666667 -0.21239921899999997 0.3938723896666666 0 0 0 0
674430080 11.284891445666668 6.101991493666667 -0.083269916 0.27670390333333333 0 0 0 0
675421160 9.902585346999999 3.013354539333333 -0.009057564333333334 0.225089569 0 0 0 0
676412240 9.144539196666665 0.7791244583333334 0.04495440833333332 0.19329257266666666 0 0 0 0
677403320 8.655312855666667 -1.3946120336666668 0.09962259200000001 0.1665750043333333 0 0 0 0
678394400 7.4635648723333325 -3.701834757666666 0.15176327 0.12067804166666665 0 0 0 0
679385480 5.383170922 -5.724592526333334 0.18992293799999999 0.05177356733333333 0 0 0 0
680376560 4.870560963666667 -6.402253150333333 0.20194570166666664 0.026332094666666667 0 0 0 0
681367640 7.5394004180000005 -4.700675963666667 0.18180235166666664 0.09471141733333333 0 0 0 0
682358720 7.827264626333333 -2.066975752 0.12267458633333334 0.11680882133333333 0 0 0 0
683349800 6.820898055333332 -0.694974303 0.08306795833333333 0.10180109699999998 0 0 0 0
684340880 5.9107114466666655 -0.364039719 0.06657187599999999 0.08358267633333333 0 0 0 0
685331960 5.317869662666666 -0.44917118500000003 0.06220612366666667 0.06841752866666667 0 0 0 0
686323040 4.893047967999999 -0.7897384956666667 0.06345510699999998 0.05465104733333333 0 0 0 0
687314120 4.584923108 -1.227007110333333 0.068520496 0.043635985999999995 0 0 0 0
688305200 4.341351031666666 -1.8076541023333332 0.07630826966666665 0.03250943166666666 0 0 0 0
689296280 4.029614925 -2.526697635 0.086270548 0.018285275333333333 0 0 0 0
690287360 3.952263990333333 -2.975812196333333 0.09345693833333335 0.012314741999999998 0 0 0 0
691278440 4.587865034 -2.154299179333333 0.08147239133333332 0.03038625366666667 0 0 0 0
692269520 4.678154309333333 -1.2930204466666666 0.065359582 0.03920265099999999 0 0 0 0
693260600 4.458596547 -0.7219379143333333 0.05191717666666666 0.041125263333333335 0 0 0 0
694251680 4.178285439 -0.4406790626666666 0.043640319 0.03992852166666667 0 0 0 0
695242760 3.964021285 -0.3497531706666666 0.04019027433333333 0.03776495733333333 0 0 0 0
696233840 3.8276060416666664 -0.38984130799999994 0.039703349 0.03621564133333333 0 0 0 0
697224920 3.7816410059999996 -0.5226926403333333 0.042300708 0.03557845033333333 0 0 0 0
698216000 3.8312802309999996 -0.7480145489999999 0.048354293666666666 0.035783026999999995 0 0 0 0
699207080 3.965749025 -1.0799561733333332 0.05826413566666666 0.03603484666666666 0 0 0 0
700198160 4.185471375333333 -1.3494874236666665 0.069880517 0.039491341333333325 0 0 0 0
701189240 4.142700672 -0.506592661 0.04925350166666666 0.046324426333333335 0 0 0 0
702180320 3.8269902859999996 0.013845263666666666 0.036009048 0.04519755633333333 0 0 0 0
703171400 3.480923890666667 0.295763641 0.02641528333333333 0.04191315133333333 0 0 0 0
704162480 3.168784618 0.40175811399999994 0.02048146733333333 0.03790939933333333 0 0 0 0
705153560 2.9461999729999997 0.4159086043333333 0.018156316 0.034951319999999994 0 0 0 0
706144640 2.7918922896666665 0.3810027433333333 0.017201426333333332 0.032809866666666666 0 0 0 0
707135720 2.6964680346666663 0.3253817453333333 0.017938546666666666 0.03183297033333333 0 0 0 0
708126800 2.640941858 0.2554933426666666 0.019120969666666668 0.031327158333333334 0 0 0 0
709117880 2.642711718333333 0.18169684666666666 0.022123212000000003 0.03239364733333333 0 0 0 0
710108960 2.6654012993333334 0.13859612666666665 0.02473514133333333 0.03359768966666666 0 0 0 0
711100040 2.4949061866666664 0.315445184 0.018254121999999998 0.031361216666666664 0 0 0 0
712091120 2.322906573333333 0.40969172066666665 0.013805874 0.028194081 0 0 0 0
713082200 2.1649060246666663 0.45503346066666667 0.010769717666666666 0.025336410000000004 0 0 0 0
