# HZ S RI R 50
500000000 -0.10979499866666667 -2.513687371666667 -0.10513722366666667 0.046196156999999995 0 0 0 0
500991080 -0.3931320406666666 -3.737176735666666 -0.13660776066666663 0.07138930733333333 0 0 0 0
501982160 -0.750645945 -5.8962082859999985 -0.196436176 0.11463629666666666 0 0 0 0
502973240 -1.023046175333333 -11.018015860999999 -0.351795643 0.18191003733333333 0 0 0 0
503964320 7.599048534333333 -16.73261706 -0.6134931836666666 0.010996957666666663 0 0 0 0
504955400 13.928359348999999 -10.599266369666665 -0.474554558 -0.24759695633333334 0 0 0 0
505946480 8.728870868000001 -6.721981683999999 -0.32738602099999997 -0.14579359666666664 0 0 0 0
506937560 4.967599391666667 -6.660868485333333 -0.264329229 -0.047528205 0 0 0 0
507928640 1.983938494666667 -5.342732587666667 -0.19563570566666666 0.030936155 0 0 0 0
508919720 0.4144562083333333 -3.899481614 -0.136339515 0.06260013033333334 0 0 0 0
509910800 -0.3145526643333333 -2.7694413656666663 -0.09233674366666667 0.07123367666666666 0 0 0 0
510901880 -0.9332791563333332 -3.7261370809999996 -0.103132717 0.10290155299999999 0 0 0 0
511892960 -2.3015912766666666 -5.619481722 -0.126919716 0.167687207 0 0 0 0
512884040 -5.450233936 -9.564379373666666 -0.17113974166666668 0.3150761716666667 0 0 0 0
513875120 -12.702167669333331 -23.729119618 -0.40498004299999996 0.727225184 0 0 0 0
514866200 33.090714772 -32.81017494133333 -1.3093734773333332 -0.23921026766666667 0 0 0 0
515857280 17.917884825999998 -10.479183196666668 -0.5380042293333333 -0.235715195 0 0 0 0
516848360 7.381177901666668 -9.392767905666666 -0.3641712066666667 -0.014761420333333332 0 0 0 0
517839440 2.6627989603333333 -6.791350523333333 -0.221860627 0.063066822 0 0 0 0
518830520 0.6215316646666667 -4.670098621999999 -0.13816877666666666 0.079341945 0 0 0 0
519821600 -0.23540743633333333 -3.2368590029999997 -0.09212161033333333 0.08549373533333333 0 0 0 0
520812680 -0.8322476343333333 -4.098967234 -0.09492673433333333 0.11335978833333334 0 0 0 0
521803760 -2.051714141666667 -6.389018694000001 -0.11834100833333333 0.18237014066666668 0 0 0 0
522794840 -5.634273210666667 -11.651017824333332 -0.16640866766666665 0.351030816 0 0 0 0
523785920 -11.684714634666665 -36.266136169 -0.5440765016666667 0.9172627323333332 0 0 0 0
524777000 41.705722808666664 -21.093846638666665 -1.217430273 -0.4339832556666666 0 0 0 0
525768080 22.206325530666664 -8.353674729333333 -0.5885441696666667 -0.27397673266666667 0 0 0 0
526759160 10.752777099 -9.177721977 -0.39172929466666667 -0.026749978333333334 0 0 0 0
527750240 4.2573583123333325 -7.8032156619999995 -0.24485403733333333 0.08144758066666666 0 0 0 0
528741320 1.0405952133333332 -5.5329338706666675 -0.1400617103333333 0.107144343 0 0 0 0
529732400 -0.13824493133333332 -3.8566164173333335 -0.08525557533333333 0.10665708966666666 0 0 0 0
530723480 -0.7568873956666666 -4.727549234666666 -0.08363623366666667 0.13929421166666667 0 0 0 0
531714560 -1.781712452 -7.947318394333334 -0.11209624933333334 0.21715664333333332 0 0 0 0
532705640 -4.878912686666666 -16.550750731999997 -0.20515082699999998 0.46122554899999996 0 0 0 0
533696720 18.240416844 -44.070926029999995 -1.1258194243333333 0.7114944253333333 0 0 0 0
534687800 32.531328200666664 5.865624029999999 -0.6133504009999999 -0.6190089376666666 0 0 0 0
535678880 23.032689412 -3.9919252390000004 -0.5930651819999999 -0.2627778843333333 0 0 0 0
536669960 12.427463213333333 -9.843157449666666 -0.4523501689999999 0.053803520333333334 0 0 0 0
537661040 4.261424302666666 -9.100317636666666 -0.24958871733333332 0.177847529 0 0 0 0
538652120 0.6233119166666666 -6.426356633333333 -0.11819031999999999 0.17739365433333332 0 0 0 0
539643200 -0.6945280026666666 -4.175924300666666 -0.04620669733333333 0.14645245133333332 0 0 0 0
540634280 -1.5918001726666664 -4.515816052333333 -0.019221844666666668 0.1683826093333333 0 0 0 0
541625360 -3.8486310636666667 -6.538413841999999 0.022687971 0.24276779066666668 0 0 0 0
542616440 -10.073173522666666 -9.997472444333333 0.15734343666666667 0.3964778576666666 0 0 0 0
543607520 -29.242690403666664 -11.295070011666667 0.6689320003333333 0.612639645 0 0 0 0
544598600 -71.31405258133333 57.538144429 2.4056406016666667 -0.7686942413333333 0 0 0 0
545589680 83.58733622199999 -7.541700363000001 -2.202628691333333 -0.5055038536666666 0 0 0 0
546580760 13.683281261999998 -24.61605199133333 -0.5673484796666667 0.5758712286666667 0 0 0 0
547571840 1.417067885 -12.645286241666668 -0.135132655 0.3645958696666667 0 0 0 0
548562920 -0.8988258439999999 -7.085244655 -0.022095714666666662 0.235206524 0 0 0 0
549554000 -1.3944872213333332 -4.317375023666666 0.01734721 0.165008614 0 0 0 0
550545080 -2.250864664 -4.145252545 0.051372021 0.1652590823333333 0 0 0 0
551536160 -4.986186185999999 -5.3721618646666665 0.13444856266666666 0.21050011066666666 0 0 0 0
552527240 -10.370002428333333 -5.214228947666666 0.303164392 0.22282212433333332 0 0 0 0
553518320 -18.752993901333333 0.088437716 0.5840385749999999 0.06939933133333333 0 0 0 0
554509400 -23.387681324999996 14.944951692333333 0.7560722226666666 -0.40397901299999994 0 0 0 0
555500480 -35.97228368099999 40.857692717999996 1.1492307976666665 -1.2328370803333333 0 0 0 0
556491560 -8.162429392 -55.897493997666665 0.34159104966666665 1.8411721776666667 0 0 0 0
557482640 -2.772456804333333 -15.372559546999998 0.17052483499999999 0.5329148763333333 0 0 0 0
558473720 -2.3276077899999996 -7.269130706333333 0.13312719699999997 0.264365772 0 0 0 0
559464800 -2.0210771156666665 -4.2455210679999995 0.11886247666666666 0.16083770933333333 0 0 0 0
560455880 -2.4555392259999995 -3.6081773436666666 0.13956511933333332 0.12622000699999997 0 0 0 0
561446960 -4.576263427 -4.076881487333333 0.21844062666666664 0.10323058033333332 0 0 0 0
562438040 -7.8047858869999995 -3.478208462 0.3188117243333333 0.03235361433333333 0 0 0 0
563429120 -11.561643281666665 -1.5768203333333333 0.39816723200000004 -0.10065086633333332 0 0 0 0
564420200 -16.148835499666664 0.7663643999999998 0.493112961 -0.2628112676666666 0 0 0 0
565411280 -21.424606323 -2.4262117143333333 0.686711291 -0.28345349366666667 0 0 0 0
566402360 -15.350074131999998 -12.371798196999999 0.68230162 0.07648708366666668 0 0 0 0
567393440 -5.751117547 -9.323963164666665 0.370623876 0.15064114299999998 0 0 0 0
568384520 -3.1355133053333333 -5.603499729999999 0.22968892200000002 0.08856783999999998 0 0 0 0
569375600 -2.2033331386666664 -3.497973918333333 0.162793144 0.047525800333333326 0 0 0 0
570366680 -2.313518682333333 -2.748181898666666 0.14755576799999998 0.018594297333333332 0 0 0 0
571357760 -3.660310665 -2.759053070666667 0.16729695066666664 -0.018989495333333335 0 0 0 0
572348840 -5.287467161333333 -2.292242685333333 0.174921264 -0.07070416399999999 0 0 0 0
573339920 -6.9672899243333335 -1.3395000293333332 0.17749875733333334 -0.130910729 0 0 0 0
574331000 -8.158705392999998 -0.40547291399999996 0.164952248 -0.16509985366666666 0 0 0 0
575322080 -9.352636654666668 -0.6409275229999999 0.18086991166666666 -0.18937067166666666 0 0 0 0
576313160 -9.489917119 -2.522006272333333 0.215163613 -0.16326822766666665 0 0 0 0
577304240 -6.816164651999999 -4.022721528333333 0.200710634 -0.08549699866666667 0 0 0 0
578295320 -4.401764710333333 -3.6551789436666664 0.156095072 -0.039454046 0 0 0 0
579286400 -2.965805212 -2.6673274829999998 0.11589484866666666 -0.025311167666666665 0 0 0 0
580277480 -2.619095563333333 -2.105445146 0.09679614733333333 -0.02663780066666667 0 0 0 0
581268560 -3.675501823 -1.7386432483333334 0.09412154533333333 -0.04547854566666666 0 0 0 0
582259640 -4.6519530609999995 -1.028671304 0.08569029933333334 -0.07124051899999999 0 0 0 0
583250720 -5.582026481333333 -0.22450937299999998 0.07761690233333333 -0.08559021533333333 0 0 0 0
584241800 -6.448347726999999 0.4863997493333333 0.07480219466666665 -0.09910128466666668 0 0 0 0
585232880 -7.256289481666666 0.6222024953333333 0.08089378433333333 -0.106368894 0 0 0 0
586223960 -7.69140466 -0.30340793666666666 0.10449675166666667 -0.10176433799999998 0 0 0 0
587215040 -6.885655402666666 -1.9714546993333333 0.12130940133333334 -0.06686781033333333 0 0 0 0
588206120 -4.990415731666666 -2.684619426 0.11043788166666665 -0.02938993966666667 0 0 0 0
589197200 -3.470351378 -2.366751670333333 0.09033627 -0.011437568999999998 0 0 0 0
590188280 -2.837004899666666 -1.907893657 0.07629935166666665 -0.006776812333333333 0 0 0 0
591179360 -3.8412225243333333 -1.4751049273333332 0.08241112499999999 -0.024385461333333334 0 0 0 0
592170440 -4.7086167329999995 -0.6341808633333332 0.08402362633333334 -0.04398898466666666 0 0 0 0
593161520 -5.432804901666666 0.33203452766666663 0.08001881533333333 -0.06308974533333334 0 0 0 0
594152600 -6.0436774883333335 1.104256113 0.08149518533333333 -0.07949967866666666 0 0 0 0
595143680 -6.777816771666666 1.3862180306666665 0.08950517533333333 -0.094831876 0 0 0 0
596134760 -7.495433329999999 0.6219199293333333 0.112731449 -0.08779846333333333 0 0 0 0
597125840 -7.169442812333333 -1.1123792723333332 0.13205346933333334 -0.06062181866666667 0 0 0 0
598116920 -5.447400092666666 -2.2608755423333333 0.12324885966666665 -0.024976506666666665 0 0 0 0
599108000 -3.8049454683333335 -2.251174290333333 0.101803851 -0.007152718333333332 0 0 0 0
600099080 -3.039662281 -1.9084974126666667 0.08517965366666666 -0.009169755999999998 0 0 0 0
601090160 -4.006257613 -1.341090877333333 0.08820429633333333 -0.030775050666666665 0 0 0 0
602081240 -4.941748459666666 -0.398233284 0.08330004133333332 -0.055484283333333335 0 0 0 0
603072320 -5.705135822 0.7449117296666667 0.07558952199999999 -0.07955123466666666 0 0 0 0
604063400 -6.411831855333332 1.7846554116666664 0.06972430833333333 -0.099213001 0 0 0 0
605054480 -7.463026046333333 2.4506192203333335 0.07025654566666666 -0.11940454633333333 0 0 0 0
606045560 -8.962954838333332 1.8903168436666666 0.096176271 -0.12890495333333332 0 0 0 0
607036640 -9.331389426666664 -1.1408412849999998 0.13897129366666666 -0.09890282099999999 0 0 0 0
608027720 -6.792494773333333 -3.261333385333333 0.13536793433333333 -0.042845683333333336 0 0 0 0
609018800 -4.314875443333333 -3.1271859006666665 0.10581710633333333 -0.012036044999999999 0 0 0 0
610009880 -2.9619432286666663 -2.3488536673333336 0.08225519433333334 -0.006742152666666666 0 0 0 0
611000960 -4.334593772333332 -2.0376035366666665 0.089545895 -0.026932488666666664 0 0 0 0
611992040 -5.870112736333333 -1.1549032523333334 0.09160336799999999 -0.050288344 0 0 0 0
612983120 -7.390153725333333 0.160304645 0.09172318833333333 -0.07887469166666666 0 0 0 0
613974200 -9.137507438333332 1.6770569083333333 0.09386945966666667 -0.109889641 0 0 0 0
614965280 -11.784677822666666 2.169640858666667 0.115223755 -0.13876892566666668 0 0 0 0
615956360 -15.018893877 -1.5608448579999998 0.191048751 -0.13151655533333334 0 0 0 0
616947440 -10.759764988333332 -7.276731172666667 0.20489858566666666 -0.019956744666666665 0 0 0 0
617938520 -5.303610324333333 -6.341870307666667 0.139669825 0.024810084 0 0 0 0
618929600 -3.177523692 -4.303793747999999 0.09736534933333332 0.026324631666666667 0 0 0 0
619920680 -2.280662377333333 -2.926403681 0.07684844466666665 0.018114831666666664 0 0 0 0
620911760 -3.2203981869999994 -3.1297676559999994 0.08866097233333332 0.010642599333333332 0 0 0 0
621902840 -4.608781814 -3.370250860333333 0.10853972733333334 -0.0007886236666666665 0 0 0 0
622893920 -6.259429294999999 -3.7277011866666663 0.13056362633333332 -0.012907686000000002 0 0 0 0
623885000 -7.985476969999999 -4.643623828333332 0.16158205233333334 -0.020848036666666667 0 0 0 0
624876080 -8.596126555999998 -6.374302069 0.18659082999999999 -0.006625059666666666 0 0 0 0
625867160 -6.714462597333332 -7.739944616333333 0.18018928633333334 0.03136917166666667 0 0 0 0
626858240 -4.165806769666666 -6.742932160333333 0.14204163299999997 0.04637941566666666 0 0 0 0
627849320 -2.7775959169999997 -5.119999884666666 0.11050856066666666 0.041348524 0 0 0 0
628840400 -2.147234042 -3.6497921143333327 0.08905031966666666 0.03027315533333333 0 0 0 0
629831480 -1.769594033 -2.6629865163333335 0.07726999799999998 0.021652741333333336 0 0 0 0
630822560 -2.3122191423333334 -2.7700964603333333 0.08586584966666666 0.015279272666666666 0 0 0 0
631813640 -3.1583663616666664 -3.0668539996666664 0.099918529 0.008763154999999998 0 0 0 0
632804720 -4.143308003333333 -3.401317119333333 0.11615306566666667 0.00021576 0 0 0 0
633795800 -5.094769477333333 -3.842526196666667 0.13546124566666665 -0.0034277656666666665 0 0 0 0
634786880 -5.603687763 -4.499584038666667 0.15186042033333333 -0.002044995333333333 0 0 0 0
635777960 -5.360336939 -4.964971859666666 0.15819972699999998 0.007962458666666667 0 0 0 0
636769040 -4.413018703 -4.9060371709999995 0.14976492466666666 0.018991514666666667 0 0 0 0
637760120 -3.5873454406666667 -4.235931237 0.133954122 0.02146223333333333 0 0 0 0
638751200 -2.9488400610000003 -3.3041039303333335 0.11788672633333333 0.014700147666666667 0 0 0 0
639742280 -2.4814744786666663 -2.500964164333333 0.10579791866666666 0.008085715333333333 0 0 0 0
640733360 -3.1131451919999997 -2.3991080916666663 0.11547899966666665 -0.0059404513333333325 0 0 0 0
641724440 -4.361771423999999 -2.3201981383333328 0.13257441366666664 -0.028743350333333334 0 0 0 0
642715520 -5.867934385666667 -1.9441859716666665 0.14855183099999997 -0.06097287866666666 0 0 0 0
643706600 -7.483045100666666 -1.471475879 0.166816557 -0.09574728666666667 0 0 0 0
644697680 -9.100441932333332 -1.2659681633333333 0.19062117166666664 -0.12852934466666666 0 0 0 0
645688760 -10.125482876666666 -2.027955929 0.223500748 -0.14087388866666667 0 0 0 0
646679840 -9.521163940000001 -3.4213139206666665 0.24284169533333333 -0.11258981333333332 0 0 0 0
647670920 -7.33684349 -4.057910600666666 0.22774372466666665 -0.07065223566666665 0 0 0 0
648662000 -5.3013679179999995 -3.5186077746666666 0.19235069999999999 -0.047973678333333325 0 0 0 0
649653080 -3.9622778883333334 -2.6606727436666664 0.160197486 -0.041707145333333334 0 0 0 0
650644160 -4.614675044666667 -2.2122598483333333 0.15865599066666664 -0.07035693233333332 0 0 0 0
651635240 -6.377672513 -1.396292527 0.16211084966666667 -0.12659807433333334 0 0 0 0
652626320 -8.461751937333332 0.19398586399999998 0.14680265366666667 -0.1996410933333333 0 0 0 0
653617400 -10.307425180333333 2.4817857739999996 0.1141202 -0.276599347 0 0 0 0
654608480 -12.438913980666666 4.886085032666665 0.080998197 -0.3594832116666667 0 0 0 0
655599560 -16.345998127999998 6.278856594999999 0.08615293533333335 -0.47434169 0 0 0 0
656590640 -19.586440403666664 1.1194060043333331 0.24032507299999997 -0.5005428986666667 0 0 0 0
657581720 -14.991824467666664 -5.4569366766666665 0.35207415566666667 -0.32815674866666666 0 0 0 0
658572800 -9.031815846 -5.412182966333333 0.2797211203333333 -0.19298293133333333 0 0 0 0
659563880 -5.864370027666666 -3.879128058 0.20423230466666667 -0.13774251399999998 0 0 0 0
660554960 -6.519888082333333 -2.9266254896666664 0.17685509166666663 -0.17432116433333333 0 0 0 0
661546040 -9.909608204666666 -0.7752009626666665 0.134259422 -0.28673550433333334 0 0 0 0
662537120 -12.531688371666668 4.5252955749999995 -0.0024800713333333335 -0.3939766283333333 0 0 0 0
663528200 -10.843102454999997 11.958417573999998 -0.22252381300000001 -0.387653549 0 0 0 0
664519280 -5.063527424999999 17.527669270333334 -0.41469469600000003 -0.26230581566666666 0 0 0 0
665510360 1.2710836723333332 20.47126769966667 -0.539259632 -0.09588811733333333 0 0 0 0
666501440 10.101618448666665 26.54124132733333 -0.7584263876666666 0.12535101099999998 0 0 0 0
667492520 46.460104624 46.10540389966667 -1.491599321 1.089966575 0 0 0 0
668483600 -14.354854583 -51.05549494366667 1.5838891659999998 -0.26590959166666667 0 0 0 0
669474680 -9.710543313999999 -14.330382028333332 0.487880001 -0.286548574 0 0 0 0
670465760 -12.465359369333331 -10.942459106000001 0.37390696933333334 -0.3983856336666667 0 0 0 0
671456840 -46.61106109566666 8.263609249666667 -0.2204795673333333 -1.400581121 0 0 0 0
672447920 6.492210864333332 27.940692265333333 -0.761733591 0.18215747133333332 0 0 0 0
673439000 9.398708025 12.776832579999999 -0.31698994799999997 0.2547393883333333 0 0 0 0
674430080 9.028598784666665 7.580070813 -0.16307651466666667 0.23407890866666664 0 0 0 0
675421160 8.93353335 4.765187898333333 -0.08210457066666665 0.22182025466666666 0 0 0 0
676412240 9.108507155666665 2.320831775 -0.011052290000000001 0.21915045833333335 0 0 0 0
677403320 9.393070220333332 -0.079794332 0.058200178666666665 0.21623328766666666 0 0 0 0
678394400 8.934983888666666 -3.015604734 0.14138033466666666 0.18746398333333336 0 0 0 0
679385480 6.763395785666667 -6.238831678666667 0.22141768966666667 0.10875838433333332 0 0 0 0
680376560 6.0720856979999995 -7.489201068333333 0.25054770666666665 0.07546283999999999 0 0 0 0
681367640 9.413829803 -4.334102788999999 0.18783810666666667 0.16808096499999997 0 0 0 0
682358720 8.744121869 -1.0626282883333333 0.102590563 0.16592407199999998 0 0 0 0
683349800 7.202773093333333 0.12165837433333333 0.06248106366666667 0.13316463399999998 0 0 0 0
684340880 6.168321132 0.2514916803333333 0.050756306333333334 0.106479771 0 0 0 0
685331960 5.552508830333332 0.006287261666666666 0.050879783666666664 0.08824113200000001 0 0 0 0
686323040 5.157619952666666 -0.41066518366666666 0.055704303999999996 0.07445573999999999 0 0 0 0
687314120 4.899877070666666 -0.9650680616666666 0.06451696566666666 0.06285211133333332 0 0 0 0
688305200 4.7391893063333335 -1.6397111013333332 0.077118513 0.05321892533333333 0 0 0 0
689296280 4.501016775333333 -2.545619726 0.09385603633333334 0.040018137999999995 0 0 0 0
690287360 4.488344350999999 -3.076848903666666 0.10436999966666667 0.033240779666666664 0 0 0 0
691278440 5.090756892666667 -1.9947100873333332 0.084211545 0.05272823899999999 0 0 0 0
692269520 5.053593794333333 -1.0057466023333332 0.062637629 0.058964537666666664 0 0 0 0
693260600 4.704389094666666 -0.3964514923333333 0.047388874666666664 0.057158267 0 0 0 0
694251680 4.366213161999999 -0.1525705103333333 0.038272077333333335 0.053283794333333336 0 0 0 0
695242760 4.125632126333333 -0.08790587566666666 0.03464704566666666 0.05005656266666667 0 0 0 0
696233840 3.9916496269999997 -0.14965107466666666 0.034752788 0.04830794866666666 0 0 0 0
697224920 3.9819757933333335 -0.29974807233333334 0.038165921666666665 0.04895217666666666 0 0 0 0
698216000 4.0651866593333335 -0.527480383 0.04488722666666667 0.050246026 0 0 0 0
699207080 4.293318112 -0.8708979483333332 0.05574985666666666 0.05490343466666667 0 0 0 0
700198160 4.565198897666667 -1.0521334403333331 0.06210561766666667 0.059102576999999996 0 0 0 0
701189240 4.414130210333333 -0.172097901 0.04179658333333333 0.06431392999999999 0 0 0 0
702180320 3.9954129849999998 0.32454395233333333 0.026392291333333335 0.05902402533333333 0 0 0 0
703171400 3.5562547836666667 0.5460652703333333 0.018070729999999997 0.05225810266666667 0 0 0 0
704162480 3.220497528333333 0.6054374173333332 0.013073825333333334 0.046529866333333336 0 0 0 0
705153560 2.9852843279999997 0.5978530243333333 0.010940307666666664 0.042612701333333336 0 0 0 0
706144640 2.827349185333333 0.5417493773333333 0.01114652 0.040141061666666665 0 0 0 0
707135720 2.737369298333333 0.47177269 0.012721194 0.039106490333333334 0 0 0 0
708126800 2.700890540666667 0.39582780966666664 0.014283277333333332 0.039739726 0 0 0 0
709117880 2.716681639 0.3191056643333333 0.017599668666666665 0.041474265999999996 0 0 0 0
710108960 2.745732545333333 0.27664469633333333 0.020452618333333332 0.04348515766666666 0 0 0 0
711100040 2.546737670333333 0.44489789966666665 0.014101603666666665 0.039513969999999995 0 0 0 0
712091120 2.349329471 0.5243919686666666 0.009773778666666667 0.034593313333333334 0 0 0 0
713082200 2.179213523333333 0.547555486 0.007113428666666666 0.03010731633333333 0 0 0 0
714073280 2.042802333333333 0.5372195833333333 0.0054607453333333335 0.026876491999999995 0 0 0 0
