# HZ S RI R 50
500000000 0.13235800899999997 -2.2095729503333335 -0.030828743 0.020970616 0 0 0 0
500991080 -0.1272668163333333 -3.0778168036666664 -0.038909949 0.027672884666666665 0 0 0 0
501982160 -0.146448264 -4.600485642333333 -0.05231627766666667 0.03769847833333333 0 0 0 0
502973240 0.5012452796666667 -7.006363868333333 -0.081790618 0.046872362 0 0 0 0
503964320 3.628254572 -9.292608578666666 -0.12598311133333331 0.031623723 0 0 0 0
504955400 6.192436217666666 -7.939005215333332 -0.12879174899999998 -0.001984051333333333 0 0 0 0
505946480 5.340915838333332 -5.700378417666666 -0.10148259966666667 -0.007080353666666667 0 0 0 0
506937560 3.3825561200000003 -4.873694578333334 -0.08029012566666666 0.009979654999999999 0 0 0 0
507928640 1.6654607049999997 -4.096929867666667 -0.06102755366666666 0.02320824133333333 0 0 0 0
508919720 0.5714809093333333 -3.275852759 -0.04324545566666666 0.029914367999999997 0 0 0 0
509910800 -0.10047146599999998 -2.502926428333333 -0.028581622666666667 0.033589433333333335 0 0 0 0
510901880 -0.490310549 -3.3570831613333327 -0.030242253999999996 0.04443962833333333 0 0 0 0
511892960 -1.0519975816666667 -5.021807829 -0.03489985166666666 0.06439550433333333 0 0 0 0
512884040 -1.9447957273333334 -8.246865589999999 -0.045662001666666674 0.09977220466666666 0 0 0 0
513875120 -0.41048782999999994 -15.029049236999999 -0.10358206633333333 0.14935593766666666 0 0 0 0
514866200 8.540671348 -15.16579882233333 -0.180244356 0.09293184633333335 0 0 0 0
515857280 8.460481643000001 -9.099832534666666 -0.137213468 0.03665588733333333 0 0 0 0
516848360 5.001798470333334 -6.8584270473333335 -0.08865761466666666 0.03818703366666666 0 0 0 0
517839440 2.3493575246666665 -5.319586594333333 -0.055099537666666656 0.04130724633333333 0 0 0 0
518830520 0.7901515956666666 -4.001109202333334 -0.03270180366666667 0.04028144166666667 0 0 0 0
519821600 -0.0072256786666666665 -2.963377395666667 -0.019459767999999995 0.03639222366666667 0 0 0 0
520812680 -0.40156518333333335 -3.7724548176666666 -0.018226414666666663 0.04471759066666667 0 0 0 0
521803760 -0.993772705 -5.819461821666666 -0.02238428866666667 0.06561826366666666 0 0 0 0
522794840 -1.6231441093333334 -10.351275761333333 -0.037107952666666666 0.10626210700000001 0 0 0 0
523785920 3.117515404333333 -20.90547116566667 -0.12221095933333333 0.17097809833333333 0 0 0 0
524777000 18.667044956999998 -15.405614534333333 -0.22735568866666667 0.04981698033333333 0 0 0 0
525768080 13.544393539 -7.832417964333333 -0.14827566799999997 0.009817679333333332 0 0 0 0
526759160 8.046372094999999 -7.227969169 -0.103511519 0.030310531 0 0 0 0
527750240 3.876829067333333 -6.481004237333334 -0.06594593766666666 0.044314683 0 0 0 0
528741320 1.3072295979999997 -5.094569841333334 -0.03933682733333333 0.04753489599999999 0 0 0 0
529732400 0.02372432633333333 -3.668675899 -0.020146444666666666 0.04294487166666666 0 0 0 0
530723480 -0.39071205200000003 -4.474157650666666 -0.018619179333333333 0.054766867000000004 0 0 0 0
531714560 -1.06673785 -7.526766140666666 -0.022356088333333333 0.08901258733333334 0 0 0 0
532705640 -1.0756354523333331 -14.871972083333333 -0.05031137 0.16663202633333332 0 0 0 0
533696720 15.958274522999996 -29.611942926666664 -0.284915447 0.2663678223333333 0 0 0 0
534687800 25.491020201999994 -5.442373592999999 -0.30165224199999996 -0.022699710666666668 0 0 0 0
535678880 17.01099014233333 -5.372622648 -0.215471878 0.01581787133333333 0 0 0 0
536669960 10.160078048333332 -8.255241711333333 -0.145951216 0.08315597166666666 0 0 0 0
537661040 4.223955471666667 -7.967959244666666 -0.07095344033333333 0.10129894766666665 0 0 0 0
538652120 0.7745667096666666 -5.9186673160000005 -0.01730110333333333 0.08943122333333334 0 0 0 0
539643200 -0.5106508726666666 -4.003997404666666 0.0065913303333333334 0.068909878 0 0 0 0
540634280 -1.3261788683333333 -4.3836596803333325 0.022393793 0.07468804166666666 0 0 0 0
541625360 -3.1313824649999997 -6.514971891666666 0.053407105999999996 0.10234267233333333 0 0 0 0
542616440 -7.743431408666667 -10.406394004333333 0.12442035166666666 0.14838318499999997 0 0 0 0
543607520 -22.097030638999996 -19.79532623233333 0.34631848299999995 0.25656821766666665 0 0 0 0
544598600 -61.616784413000005 -117.73085784833333 1.132924 1.518620888 0 0 0 0
545589680 32.65724754266667 -38.746852874 -0.35988595033333337 0.6425042943333332 0 0 0 0
546580760 8.401249249333333 -18.587933222 -0.06103157233333334 0.3136230403333333 0 0 0 0
547571840 1.4353134229999998 -10.638794262666666 0.025821919 0.177142252 0 0 0 0
548562920 -0.6927659110000001 -6.399859745666667 0.04754609566666666 0.10922434866666667 0 0 0 0
549554000 -1.2022867596666666 -4.083648998999999 0.05131740566666666 0.072067824 0 0 0 0
550545080 -1.9242949876666666 -3.9643026186666668 0.06541344499999999 0.06568400033333333 0 0 0 0
551536160 -4.146953741333333 -5.270289579666667 0.11589687266666666 0.06863803333333332 0 0 0 0
552527240 -8.788060505666666 -6.295270442333333 0.200289999 0.041626998 0 0 0 0
553518320 -17.928076425666667 -4.413996616666666 0.34221665999999995 -0.06376857266666666 0 0 0 0
554509400 -33.563542683333324 2.5365101489999997 0.5401392176666666 -0.35703895433333327 0 0 0 0
555500480 -94.03761291466665 -27.677464802333333 1.8707427573333333 -0.5620626206666667 0 0 0 0
556491560 -3.988957802333333 -30.738927840666666 0.45026181099999996 0.4806758756666666 0 0 0 0
557482640 -1.8078126109999997 -12.419302621999998 0.21870789366666665 0.19121283733333333 0 0 0 0
558473720 -1.8301053436666666 -6.611175536666666 0.15151966566666666 0.08971200333333332 0 0 0 0
559464800 -1.7405093503333333 -3.9966512516666666 0.11789593299999998 0.04297753866666666 0 0 0 0
560455880 -2.2096742786666668 -3.436667124 0.12021504799999999 0.016914509999999997 0 0 0 0
561446960 -4.065597692666666 -4.000526824666666 0.15717590799999998 -0.020537611666666667 0 0 0 0
562438040 -6.788386185666667 -4.020915984666667 0.18967202266666666 -0.08530811399999999 0 0 0 0
563429120 -10.64131991 -3.15332667 0.20873959833333333 -0.18603701366666664 0 0 0 0
564420200 -14.773259798333331 -2.566129365666667 0.23035177033333332 -0.291615466 0 0 0 0
565411280 -17.616342544 -6.874390125 0.33709244866666666 -0.33227355233333333 0 0 0 0
566402360 -10.204068183333334 -11.456466038333332 0.3694240443333333 -0.1433070793333333 0 0 0 0
567393440 -4.4332011536666664 -8.071582158 0.24417176299999999 -0.05297469899999999 0 0 0 0
568384520 -2.6793201756666662 -5.031561533 0.15963188266666667 -0.04211669866666666 0 0 0 0
569375600 -1.978452642 -3.266856352 0.11069441799999999 -0.041419265999999996 0 0 0 0
570366680 -2.0670914646666665 -2.641303062 0.09160659899999998 -0.051027768 0 0 0 0
571357760 -3.244616905333333 -2.7649199163333336 0.08733085233333333 -0.08086179633333332 0 0 0 0
572348840 -4.725637912333333 -2.5576180613333332 0.07461185199999999 -0.11463253166666666 0 0 0 0
573339920 -6.266641616333333 -2.1401815409999996 0.05738437266666666 -0.14483935566666664 0 0 0 0
574331000 -7.719630717666666 -1.7437760426666664 0.03925022166666666 -0.166806687 0 0 0 0
575322080 -8.712001799999998 -2.3868327136666663 0.04713944933333333 -0.18407173899999998 0 0 0 0
576313160 -8.130594252666665 -3.6528201100000004 0.07029297899999999 -0.17528466366666665 0 0 0 0
577304240 -5.722931702333334 -4.305949210333333 0.08330939433333334 -0.13111863 0 0 0 0
578295320 -3.7099138093333335 -3.643236875 0.07084788566666667 -0.090785448 0 0 0 0
579286400 -2.5520199926666667 -2.7126283640000004 0.054801421333333336 -0.06812200399999999 0 0 0 0
580277480 -2.338677803 -2.1549483136666665 0.043023859 -0.06179632933333332 0 0 0 0
581268560 -3.305803696 -1.9788423769999999 0.030942764333333334 -0.07250221533333331 0 0 0 0
582259640 -4.409308274333332 -1.5590234196666666 0.01649494233333333 -0.083926779 0 0 0 0
583250720 -5.472878614666667 -1.0672298269999998 0.0016419873333333333 -0.09234487733333333 0 0 0 0
584241800 -6.602387428 -0.656316896 -0.008227071999999998 -0.09894974233333333 0 0 0 0
585232880 -7.407756645999999 -0.7903790866666667 -0.00815843 -0.103539968 0 0 0 0
586223960 -7.625515301666667 -2.1056677496666665 0.009283953 -0.10721113266666667 0 0 0 0
587215040 -6.299102146666667 -3.2236897943333336 0.03097200233333333 -0.091582514 0 0 0 0
588206120 -4.324358621666667 -3.2898289356666663 0.036807733999999995 -0.06396136633333332 0 0 0 0
589197200 -3.008762279666666 -2.6606455636666664 0.035119028999999996 -0.046486365 0 0 0 0
590188280 -2.539747317 -2.1040412576666663 0.029072051 -0.038678314 0 0 0 0
591179360 -3.5635744726666663 -1.8778878046666665 0.02550887033333333 -0.04740427866666667 0 0 0 0
592170440 -4.650882243333332 -1.307506521 0.018136199 -0.055311703999999996 0 0 0 0
593161520 -5.6718762709999995 -0.5722372126666666 0.011099524 -0.06438451966666667 0 0 0 0
594152600 -6.650863965 0.06559168166666665 0.005961768333333333 -0.07392988533333333 0 0 0 0
595143680 -7.6630875263333325 0.072032552 0.007120146333333334 -0.083050685 0 0 0 0
596134760 -8.125779786999999 -1.1311405893333335 0.02196909433333333 -0.08972687733333334 0 0 0 0
597125840 -6.985236326333333 -2.8144826886666667 0.043858771 -0.07785653033333334 0 0 0 0
598116920 -4.921017646333333 -3.2192135649999996 0.04895184166666666 -0.056562282666666665 0 0 0 0
599108000 -3.3674469783333336 -2.696645339 0.043324948333333335 -0.04129913033333333 0 0 0 0
600099080 -2.622518300333333 -2.1046675043333334 0.03856247733333333 -0.03428581833333333 0 0 0 0
601090160 -3.7280298863333337 -1.8197755406666665 0.033326155999999996 -0.04756087266666667 0 0 0 0
602081240 -4.895376046 -1.2061682536666665 0.024369563666666667 -0.06052446166666667 0 0 0 0
603072320 -6.086268583333333 -0.3527549796666666 0.013516952666666667 -0.07352147933333333 0 0 0 0
604063400 -7.386736551333333 0.5795950093333333 0.0026519206666666666 -0.085250546 0 0 0 0
605054480 -8.967131932 0.7190844216666666 -0.0017826553333333333 -0.10167018766666666 0 0 0 0
606045560 -10.426426886999998 -1.0391197399999998 0.015652065 -0.11727846599999998 0 0 0 0
607036640 -8.974923451333332 -4.2876979503333335 0.04973033133333333 -0.10299396966666666 0 0 0 0
608027720 -5.547647475333333 -4.7703022950000005 0.053065626000000005 -0.06776522566666666 0 0 0 0
609018800 -3.4886089956666666 -3.734787384333333 0.04396672233333333 -0.04582493966666666 0 0 0 0
610009880 -2.5416531559999997 -2.6895699493333334 0.03433026833333333 -0.034622428 0 0 0 0
611000960 -3.9230897423333326 -2.777319669333333 0.031326995999999996 -0.04629479533333333 0 0 0 0
611992040 -5.853499253333333 -2.5587569869999998 0.024909133666666666 -0.05934790499999999 0 0 0 0
612983120 -8.334335326666666 -1.7175799999999999 0.013796643333333332 -0.07646315 0 0 0 0
613974200 -11.641028085666665 -0.9063208100000001 0.005920748666666666 -0.09841748800000001 0 0 0 0
614965280 -16.151362100666667 -2.2373535626666663 0.016041826666666665 -0.12669600766666667 0 0 0 0
615956360 -15.905869165666667 -10.729424158 0.08259157033333334 -0.12538364999999999 0 0 0 0
616947440 -6.819071928333333 -11.281177202333334 0.086752243 -0.05149390133333333 0 0 0 0
617938520 -3.2964835159999994 -7.296751180666666 0.06016066366666667 -0.022686327999999995 0 0 0 0
618929600 -2.275349696 -4.733835696666667 0.04388210266666666 -0.016286845666666664 0 0 0 0
619920680 -1.8397413086666667 -3.198480049333333 0.034387192999999996 -0.013872259333333333 0 0 0 0
620911760 -2.732800245 -3.656171162333333 0.03947700999999999 -0.018862334 0 0 0 0
621902840 -4.087051708666666 -4.468949794333333 0.04732634333333333 -0.028368419 0 0 0 0
622893920 -5.790419896 -5.585377533333333 0.058013204 -0.04094232833333333 0 0 0 0
623885000 -7.343740304000001 -7.502307096666667 0.07564365033333333 -0.04866626933333333 0 0 0 0
624876080 -6.689361094666666 -9.955531755333332 0.09770631699999999 -0.04131308366666667 0 0 0 0
625867160 -3.968415657 -9.983543395666667 0.09630661166666667 -0.021505805999999995 0 0 0 0
626858240 -2.201152324333333 -7.907297928666666 0.07847373133333332 -0.011669441 0 0 0 0
627849320 -1.6824490623333332 -5.646646022333333 0.061924441999999996 -0.010886798 0 0 0 0
628840400 -1.5649305576666666 -4.128932634666667 0.05005179666666666 -0.013240584666666666 0 0 0 0
629831480 -1.4787542416666666 -2.970878203 0.041167361666666666 -0.016358757666666664 0 0 0 0
630822560 -2.081992228333333 -3.201851685333333 0.042249518 -0.021860372000000003 0 0 0 0
631813640 -2.969417492 -3.786006609333333 0.047173137000000004 -0.030684735666666664 0 0 0 0
632804720 -4.0520750676666655 -4.499206383666666 0.05400868733333333 -0.03987294866666666 0 0 0 0
633795800 -5.091323375 -5.421291350666667 0.06353327866666666 -0.04857783333333333 0 0 0 0
634786880 -5.481260299333333 -6.436374505 0.07371378866666667 -0.04932555633333333 0 0 0 0
635777960 -5.164931932666667 -7.006359576666666 0.07989424199999999 -0.048724636 0 0 0 0
636769040 -4.096441427333333 -6.403722126666666 0.07772674333333332 -0.04023694566666666 0 0 0 0
637760120 -3.2686490213333337 -5.241293747999999 0.066464456 -0.03448965 0 0 0 0
638751200 -2.8090996736666662 -4.037863731 0.05714772466666666 -0.032436012666666666 0 0 0 0
639742280 -2.447283585 -2.954918861 0.046821572333333325 -0.030806644 0 0 0 0
640733360 -3.221169471333333 -2.8997173303333335 0.046457531999999996 -0.04044433133333333 0 0 0 0
641724440 -4.799963632666666 -2.999826192333333 0.047480890666666664 -0.05780291633333333 0 0 0 0
642715520 -6.8282953893333325 -2.749905347666667 0.045302753333333334 -0.08054396466666666 0 0 0 0
643706600 -9.316824594666667 -2.199758290666667 0.038866527 -0.10731367233333333 0 0 0 0
644697680 -11.816698391666666 -1.897783239 0.036578007999999995 -0.13691487833333332 0 0 0 0
645688760 -13.496814727 -3.1604904326666667 0.051926135666666665 -0.16010600266666666 0 0 0 0
646679840 -12.120564142333333 -5.548282781999999 0.07567410599999999 -0.1474920803333333 0 0 0 0
647670920 -8.559050877333332 -5.822704791333333 0.07943518899999999 -0.10991733466666666 0 0 0 0
648662000 -5.885207493666666 -4.567462920666667 0.06667313166666666 -0.08237297799999999 0 0 0 0
649653080 -4.281644661666666 -3.277203877333333 0.05178265966666666 -0.06748964333333332 0 0 0 0
650644160 -5.135380585666667 -2.763078451 0.04041376766666666 -0.07900681066666666 0 0 0 0
651635240 -7.590055783333334 -1.8294887936666666 0.02254629833333333 -0.10898495666666666 0 0 0 0
652626320 -10.171005884333333 0.5349468289999999 -0.016179146666666665 -0.13503352733333332 0 0 0 0
653617400 -12.500543911666668 4.54067405 -0.07449795766666667 -0.150727351 0 0 0 0
654608480 -14.600403467 9.757768630333333 -0.14375948833333332 -0.162109424 0 0 0 0
655599560 -18.923121769666665 13.641115505999998 -0.20840388499999998 -0.19816202899999996 0 0 0 0
656590640 -29.745118458666667 8.616264025 -0.19211772033333332 -0.3281915183333333 0 0 0 0
657581720 -23.299451191333333 -8.186811923666665 0.016765745666666665 -0.32310824533333327 0 0 0 0
658572800 -11.166181563666665 -7.608732222666667 0.05208474466666666 -0.18235302933333333 0 0 0 0
659563880 -6.603993732999999 -4.748126347333333 0.033386812333333335 -0.11748876366666666 0 0 0 0
660554960 -7.452422618333334 -3.4572219843333327 0.011094300333333335 -0.12137194200000001 0 0 0 0
661546040 -11.856983501999999 -0.5531666076666666 -0.04847318266666667 -0.15141777633333334 0 0 0 0
662537120 -13.755826313666667 7.668545563333333 -0.14674964 -0.12434372233333335 0 0 0 0
663528200 -8.110756237666665 15.097769418999999 -0.19636709466666669 -0.02425503933333333 0 0 0 0
664519280 -1.171008944 16.866699854 -0.17485722366666667 0.05491068666666667 0 0 0 0
665510360 4.658189932333333 17.323230742666667 -0.15349402966666664 0.12050786333333333 0 0 0 0
666501440 11.481539725666666 18.927689234 -0.13718206633333332 0.20606985666666666 0 0 0 0
667492520 30.788108825 23.336496353 -0.07272106866666667 0.445718874 0 0 0 0
668483600 33.02396774233333 -68.41289011566666 0.9587941563333333 -0.022402469999999997 0 0 0 0
669474680 -9.280671436999999 -18.67684109933333 0.15707486333333331 -0.242441629 0 0 0 0
670465760 -14.342673619 -14.272389093333333 0.06965241033333333 -0.27993495199999996 0 0 0 0
671456840 -55.470714568333335 43.51184082 -0.866892874 -0.3306226923333333 0 0 0 0
672447920 10.193093935 22.543572107666666 -0.1597610213333333 0.25489519499999996 0 0 0 0
673439000 8.880291302333333 10.819532076000002 -0.04178748266666667 0.153304338 0 0 0 0
674430080 8.484716414999998 6.677313486 -0.0028241383333333335 0.12132044066666665 0 0 0 0
675421160 8.275822002999998 4.487408796333334 0.020402262999999997 0.10155434366666666 0 0 0 0
676412240 8.506063142666665 2.3900906236666666 0.044511863666666665 0.08685790699999998 0 0 0 0
677403320 8.875577926333332 0.321875249 0.073026463 0.07320826666666666 0 0 0 0
678394400 8.800548552999999 -2.5493964349999994 0.102933461 0.044867736 0 0 0 0
679385480 7.134121417666667 -5.781546433333333 0.12287615166666667 -0.004447198666666667 0 0 0 0
680376560 6.802681127333334 -6.901484171 0.13034399333333335 -0.025051223333333334 0 0 0 0
681367640 9.325565019666666 -3.661478598333333 0.12179465533333333 0.026421278333333333 0 0 0 0
682358720 8.495367685333331 -0.7283248696666667 0.08842776666666666 0.04817613166666666 0 0 0 0
683349800 7.073155879333333 0.31222415899999995 0.06364713533333333 0.04383227433333334 0 0 0 0
684340880 6.058662255333333 0.3721970016666666 0.052310330999999995 0.033816165999999995 0 0 0 0
685331960 5.509476025333333 0.09763140699999998 0.047353308 0.025711748 0 0 0 0
686323040 5.126671472999999 -0.29139051800000004 0.04708190566666666 0.017605455666666665 0 0 0 0
687314120 4.965719858333333 -0.9137982523333332 0.049043248666666664 0.009680301666666667 0 0 0 0
688305200 4.772380192333333 -1.6027326973333331 0.051894741333333334 0.0005910749999999999 0 0 0 0
689296280 4.553798516333333 -2.5331397846666666 0.05541091833333334 -0.011727412 0 0 0 0
690287360 4.4891122176666665 -3.0782406323333333 0.05679695766666666 -0.018079992666666666 0 0 0 0
691278440 5.099360147666666 -2.019479989333333 0.054408387333333336 -0.003460475666666666 0 0 0 0
692269520 5.0428601896666665 -1.027217149 0.045959374 0.004639203999999999 0 0 0 0
693260600 4.702989736666667 -0.45158284866666665 0.039411023999999996 0.009111027666666667 0 0 0 0
694251680 4.382089772999999 -0.18475902033333336 0.03375604433333333 0.010810461666666667 0 0 0 0
695242760 4.109619298666666 -0.13650148066666667 0.030339243000000002 0.009725539666666666 0 0 0 0
696233840 3.9807101083333336 -0.19282881866666662 0.029919001666666667 0.009316114666666667 0 0 0 0
697224920 3.95849363 -0.350012858 0.030758364333333333 0.008158218666666665 0 0 0 0
698216000 4.034904161666667 -0.5831717446666667 0.033531552333333325 0.006947392 0 0 0 0
699207080 4.233596483333333 -0.9293139573333332 0.03904385566666666 0.0052716989999999995 0 0 0 0
700198160 4.541091759666666 -1.099418719 0.04569213933333333 0.0068088309999999996 0 0 0 0
701189240 4.353720664333332 -0.2976709696666666 0.03651452266666667 0.012584899333333333 0 0 0 0
702180320 3.940475066333333 0.234139119 0.028721824999999996 0.015206458666666667 0 0 0 0
703171400 3.535922845 0.46968408399999995 0.022490011666666664 0.015280111999999998 0 0 0 0
704162480 3.2178076899999994 0.5473221936666666 0.018807424333333333 0.014314575666666666 0 0 0 0
705153560 2.9825325006666668 0.5449294643333333 0.016511759666666667 0.013099983333333332 0 0 0 0
706144640 2.8271296816666664 0.4917029136666667 0.015513547999999999 0.012336195666666668 0 0 0 0
707135720 2.731503883666667 0.4178261853333334 0.015261386666666668 0.011549357333333333 0 0 0 0
708126800 2.6949926213333333 0.340455432 0.01606245533333333 0.010934603666666667 0 0 0 0
709117880 2.70310688 0.2634698743333333 0.01748277833333333 0.010706786666666666 0 0 0 0
710108960 2.7281846996666665 0.216117476 0.018817204666666663 0.010255638 0 0 0 0
711100040 2.5372165833333336 0.3856246863333333 0.014934848666666667 0.010581112333333332 0 0 0 0
